T3CCC 000:013.242   SEGGER J-Link V7.82 Log File
T3CCC 000:013.420   DLL Compiled: Oct 13 2022 13:32:51
T3CCC 000:013.427   Logging started @ 2025-04-11 08:22
T3CCC 000:013.434 - 13.438ms
T3CCC 000:013.453 JLINK_SetWarnOutHandler(...)
T3CCC 000:013.463 - 0.012ms
T3CCC 000:013.471 JLINK_OpenEx(...)
T3CCC 000:016.132   Firmware: J-Link V9 compiled May  7 2021 16:26:12
T3CCC 000:016.729   Firmware: J-Link V9 compiled May  7 2021 16:26:12
T3CCC 000:016.939   Decompressing FW timestamp took 174 us
T3CCC 000:023.585   Hardware: V9.60
T3CCC 000:023.608   S/N: 69651283
T3CCC 000:023.617   OEM: SEGGER
T3CCC 000:023.627   Feature(s): RDI, GDB, FlashDL, FlashBP, JFlash
T3CCC 000:025.114   TELNET listener socket opened on port 19021
T3CCC 000:025.298   WEBSRV WEBSRV_Init(): Starting webserver thread(s)
T3CCC 000:025.541   WEBSRV Webserver running on local port 19080
T3CCC 000:034.299 - 20.850ms returns "O.K."
T3CCC 000:034.410 JLINK_GetEmuCaps()
T3CCC 000:034.419 - 0.013ms returns 0xB9FF7BBF
T3CCC 000:034.433 JLINK_TIF_GetAvailable(...)
T3CCC 000:034.723 - 0.300ms
T3CCC 000:034.748 JLINK_SetErrorOutHandler(...)
T3CCC 000:034.758 - 0.014ms
T3CCC 000:034.791 JLINK_ExecCommand("ProjectFile = "C:\workspace\projects_STM\monitorTrans\MDK-ARM\JLinkSettings.ini"", ...). 
T3CCC 000:052.269 - 17.494ms returns 0x00
T3CCC 000:052.365 JLINK_ExecCommand("Device = STM32L4R7ZITx", ...). 
T3CCC 000:054.346   Device "STM32L4R7ZI" selected.
T3CCC 000:054.691 - 2.321ms returns 0x00
T3CCC 000:054.707 JLINK_ExecCommand("DisableConnectionTimeout", ...). 
T3CCC 000:054.718 - 0.005ms returns 0x01
T3CCC 000:054.727 JLINK_GetHardwareVersion()
T3CCC 000:054.733 - 0.010ms returns 96000
T3CCC 000:054.746 JLINK_GetDLLVersion()
T3CCC 000:054.753 - 0.009ms returns 78200
T3CCC 000:054.760 JLINK_GetOEMString(...)
T3CCC 000:054.768 JLINK_GetFirmwareString(...)
T3CCC 000:054.774 - 0.009ms
T3CCC 000:054.802 JLINK_GetDLLVersion()
T3CCC 000:054.808 - 0.009ms returns 78200
T3CCC 000:054.816 JLINK_GetCompileDateTime()
T3CCC 000:054.822 - 0.009ms
T3CCC 000:054.835 JLINK_GetFirmwareString(...)
T3CCC 000:054.841 - 0.009ms
T3CCC 000:054.853 JLINK_GetHardwareVersion()
T3CCC 000:054.860 - 0.009ms returns 96000
T3CCC 000:054.871 JLINK_GetSN()
T3CCC 000:054.878 - 0.009ms returns 69651283
T3CCC 000:054.889 JLINK_GetOEMString(...)
T3CCC 000:054.905 JLINK_TIF_Select(JLINKARM_TIF_JTAG)
T3CCC 000:055.691 - 0.804ms returns 0x00
T3CCC 000:055.719 JLINK_HasError()
T3CCC 000:055.740 JLINK_SetSpeed(5000)
T3CCC 000:055.810 - 0.077ms
T3CCC 000:055.825 JLINK_GetIdData(pIdData)
T3CCC 000:057.444   TotalIRLen = 9, IRPrint = 0x0011
T3CCC 000:057.912   JTAG chain detection found 2 devices:
T3CCC 000:057.940    #0 Id: 0x4BA00477, IRLen: 04, CoreSight JTAG-DP
T3CCC 000:057.953    #1 Id: 0x06470041, IRLen: 05, Unknown device
T3CCC 000:071.510   TotalIRLen = 9, IRPrint = 0x0011
T3CCC 000:071.958   JTAG chain detection found 2 devices:
T3CCC 000:071.987    #0 Id: 0x4BA00477, IRLen: 04, CoreSight JTAG-DP
T3CCC 000:072.003    #1 Id: 0x06470041, IRLen: 05, Unknown device
T3CCC 000:074.025   DPv0 detected
T3CCC 000:074.057   Scanning AP map to find all available APs
T3CCC 000:074.789   AP[1]: Stopped AP scan as end of AP map has been reached
T3CCC 000:074.820   AP[0]: AHB-AP (IDR: 0x24770011)
T3CCC 000:074.835   Iterating through AP map to find AHB-AP to use
T3CCC 000:075.864   AP[0]: Core found
T3CCC 000:075.896   AP[0]: AHB-AP ROM base: 0xE00FF000
T3CCC 000:076.431   CPUID register: 0x410FC241. Implementer code: 0x41 (ARM)
T3CCC 000:076.466   Found Cortex-M4 r0p1, Little endian.
T3CCC 000:076.904   -- Max. mem block: 0x00010C40
T3CCC 000:077.024   CPU_ReadMem(4 bytes @ 0xE000EDF0)
T3CCC 000:078.025   CPU_ReadMem(4 bytes @ 0xE0002000)
T3CCC 000:078.404   FPUnit: 6 code (BP) slots and 2 literal slots
T3CCC 000:078.434   CPU_ReadMem(4 bytes @ 0xE000EDFC)
T3CCC 000:078.799   CPU_WriteMem(4 bytes @ 0xE000EDFC)
T3CCC 000:079.190   CPU_ReadMem(4 bytes @ 0xE0001000)
T3CCC 000:079.593   CPU_WriteMem(4 bytes @ 0xE0001000)
T3CCC 000:080.038   CPU_ReadMem(4 bytes @ 0xE000ED88)
T3CCC 000:080.656   CPU_WriteMem(4 bytes @ 0xE000ED88)
T3CCC 000:080.985   CPU_ReadMem(4 bytes @ 0xE000ED88)
T3CCC 000:081.350   CPU_WriteMem(4 bytes @ 0xE000ED88)
T3CCC 000:081.679   CoreSight components:
T3CCC 000:081.702   ROMTbl[0] @ E00FF000
T3CCC 000:081.714   CPU_ReadMem(64 bytes @ 0xE00FF000)
T3CCC 000:082.474   CPU_ReadMem(32 bytes @ 0xE000EFE0)
T3CCC 000:082.951   [0][0]: E000E000 CID B105E00D PID 000BB00C SCS-M7
T3CCC 000:082.965   CPU_ReadMem(32 bytes @ 0xE0001FE0)
T3CCC 000:083.453   [0][1]: E0001000 CID B105E00D PID 003BB002 DWT
T3CCC 000:083.467   CPU_ReadMem(32 bytes @ 0xE0002FE0)
T3CCC 000:083.950   [0][2]: E0002000 CID B105E00D PID 002BB003 FPB
T3CCC 000:083.964   CPU_ReadMem(32 bytes @ 0xE0000FE0)
T3CCC 000:084.452   [0][3]: E0000000 CID B105E00D PID 003BB001 ITM
T3CCC 000:084.466   CPU_ReadMem(32 bytes @ 0xE0040FE0)
T3CCC 000:084.953   [0][4]: E0040000 CID B105900D PID 000BB9A1 TPIU
T3CCC 000:084.967   CPU_ReadMem(32 bytes @ 0xE0041FE0)
T3CCC 000:085.453   [0][5]: E0041000 CID B105900D PID 000BB925 ETM
T3CCC 000:085.516   pIdData->ScanLen=9
T3CCC 000:085.528   
T3CCC 000:085.535   pIdData->NumDevices=2
T3CCC 000:085.545   
T3CCC 000:085.553   pIdData->aId[0]=0x4BA00477
T3CCC 000:085.563   
T3CCC 000:085.570   pIdData->aIrRead[0]=0
T3CCC 000:085.581   
T3CCC 000:085.588   pIdData->aScanLen[0]=0
T3CCC 000:085.598   
T3CCC 000:085.605   pIdData->aScanRead[0]=0
T3CCC 000:085.616   
T3CCC 000:085.623 - 29.801ms
T3CCC 000:085.648 JLINK_JTAG_GetDeviceID(DeviceIndex = 0)
T3CCC 000:085.659 - 0.014ms returns 1268778103
T3CCC 000:085.670 JLINK_JTAG_GetDeviceInfo(DeviceIndex = 0)
T3CCC 000:085.678 - 0.011ms returns 0
T3CCC 000:085.687 JLINK_JTAG_GetDeviceID(DeviceIndex = 1)
T3CCC 000:085.694 - 0.011ms returns 105316417
T3CCC 000:085.777 JLINK_JTAG_GetDeviceInfo(DeviceIndex = 1)
T3CCC 000:085.787 - 0.013ms returns 1
T3CCC 000:085.798 JLINK_GetDLLVersion()
T3CCC 000:085.806 - 0.011ms returns 78200
T3CCC 000:085.815 JLINK_CORE_GetFound()
T3CCC 000:085.822 - 0.010ms returns 0xE0000FF
T3CCC 000:085.832 JLINK_GetDebugInfo(0x100 = JLINKARM_ROM_TABLE_ADDR_INDEX)
T3CCC 000:085.844   Value=0xE00FF000
T3CCC 000:085.855 - 0.026ms returns 0
T3CCC 000:085.874 JLINK_GetDebugInfo(0x100 = JLINKARM_ROM_TABLE_ADDR_INDEX)
T3CCC 000:085.882   Value=0xE00FF000
T3CCC 000:085.893 - 0.022ms returns 0
T3CCC 000:085.902 JLINK_GetDebugInfo(0x101 = JLINKARM_DEBUG_INFO_ETM_ADDR_INDEX)
T3CCC 000:085.910   Value=0xE0041000
T3CCC 000:085.920 - 0.021ms returns 0
T3CCC 000:085.932 JLINK_ReadMemEx(0xE0041FD0, 0x20 Bytes, Flags = 0x02000004)
T3CCC 000:085.962   CPU_ReadMem(32 bytes @ 0xE0041FD0)
T3CCC 000:086.453   Data:  04 00 00 00 00 00 00 00 00 00 00 00 00 00 00 00 ...
T3CCC 000:086.466 - 0.538ms returns 32 (0x20)
T3CCC 000:086.478 JLINK_GetDebugInfo(0x102 = JLINKARM_DEBUG_INFO_MTB_ADDR_INDEX)
T3CCC 000:086.486   Value=0x00000000
T3CCC 000:086.496 - 0.022ms returns 0
T3CCC 000:086.506 JLINK_GetDebugInfo(0x103 = JLINKARM_DEBUG_INFO_TPIU_ADDR_INDEX)
T3CCC 000:086.513   Value=0xE0040000
T3CCC 000:086.524 - 0.021ms returns 0
T3CCC 000:086.533 JLINK_GetDebugInfo(0x104 = JLINKARM_DEBUG_INFO_ITM_ADDR_INDEX)
T3CCC 000:086.540   Value=0xE0000000
T3CCC 000:086.550 - 0.021ms returns 0
T3CCC 000:086.560 JLINK_GetDebugInfo(0x105 = JLINKARM_DEBUG_INFO_DWT_ADDR_INDEX)
T3CCC 000:086.567   Value=0xE0001000
T3CCC 000:086.578 - 0.022ms returns 0
T3CCC 000:087.159 JLINK_GetDebugInfo(0x106 = JLINKARM_DEBUG_INFO_FPB_ADDR_INDEX)
T3CCC 000:087.173   Value=0xE0002000
T3CCC 000:087.184 - 0.028ms returns 0
T3CCC 000:087.194 JLINK_GetDebugInfo(0x107 = JLINKARM_DEBUG_INFO_NVIC_ADDR_INDEX)
T3CCC 000:087.202   Value=0xE000E000
T3CCC 000:087.212 - 0.021ms returns 0
T3CCC 000:087.221 JLINK_GetDebugInfo(0x10C = JLINKARM_DEBUG_INFO_DBG_ADDR_INDEX)
T3CCC 000:087.229   Value=0xE000EDF0
T3CCC 000:087.239 - 0.021ms returns 0
T3CCC 000:087.248 JLINK_GetDebugInfo(0x01 = Unknown)
T3CCC 000:087.260   Value=0x00000001
T3CCC 000:087.271 - 0.026ms returns 0
T3CCC 000:087.280 JLINK_ReadMemU32(0xE000ED00, 0x1 Items)
T3CCC 000:087.302   CPU_ReadMem(4 bytes @ 0xE000ED00)
T3CCC 000:087.600   Data:  41 C2 0F 41
T3CCC 000:087.615   Debug reg: CPUID
T3CCC 000:087.625 - 0.349ms returns 1 (0x1)
T3CCC 000:087.636 JLINK_GetDebugInfo(0x10F = JLINKARM_DEBUG_INFO_HAS_CORTEX_M_SECURITY_EXT_INDEX)
T3CCC 000:087.644   Value=0x00000000
T3CCC 000:087.655 - 0.022ms returns 0
T3CCC 000:087.664 JLINK_HasError()
T3CCC 000:087.674 JLINK_SetResetType(JLINKARM_CM3_RESET_TYPE_NORMAL)
T3CCC 000:087.682 - 0.012ms returns JLINKARM_CM3_RESET_TYPE_NORMAL
T3CCC 000:087.692 JLINK_Reset()
T3CCC 000:087.713   CPU is running
T3CCC 000:087.726   CPU_WriteMem(4 bytes @ 0xE000EDF0)
T3CCC 000:088.121   CPU is running
T3CCC 000:088.134   CPU_WriteMem(4 bytes @ 0xE000EDFC)
T3CCC 000:088.470   Reset: Halt core after reset via DEMCR.VC_CORERESET.
T3CCC 000:088.490   Reset: Reset device via AIRCR.SYSRESETREQ.
T3CCC 000:088.502   CPU is running
T3CCC 000:088.513   CPU_WriteMem(4 bytes @ 0xE000ED0C)
T3CCC 000:140.648   CPU_ReadMem(4 bytes @ 0xE000EDF0)
T3CCC 000:141.090   CPU_ReadMem(4 bytes @ 0xE000EDF0)
T3CCC 000:141.602   CPU is running
T3CCC 000:141.638   CPU_WriteMem(4 bytes @ 0xE000EDF0)
T3CCC 000:141.995   CPU is running
T3CCC 000:142.025   CPU_WriteMem(4 bytes @ 0xE000EDFC)
T3CCC 000:148.595   CPU_ReadMem(4 bytes @ 0xE000EDF0)
T3CCC 000:151.044   CPU_WriteMem(4 bytes @ 0xE000EDFC)
T3CCC 000:151.431   CPU_WriteMem(4 bytes @ 0xE0001028)
T3CCC 000:151.872   CPU_WriteMem(4 bytes @ 0xE0001038)
T3CCC 000:152.407   CPU_WriteMem(4 bytes @ 0xE0001048)
T3CCC 000:152.788   CPU_WriteMem(4 bytes @ 0xE0001058)
T3CCC 000:153.243   CPU_WriteMem(4 bytes @ 0xE0002000)
T3CCC 000:153.726   CPU_ReadMem(4 bytes @ 0xE000EDFC)
T3CCC 000:154.226   CPU_ReadMem(4 bytes @ 0xE0001000)
T3CCC 000:154.773 - 67.101ms
T3CCC 000:154.820 JLINK_HasError()
T3CCC 000:154.832 JLINK_ReadReg(R15 (PC))
T3CCC 000:154.852 - 0.024ms returns 0x0800027C
T3CCC 000:154.863 JLINK_ReadReg(XPSR)
T3CCC 000:154.872 - 0.012ms returns 0x01000000
T3CCC 000:154.881 JLINK_Halt()
T3CCC 000:154.889 - 0.010ms returns 0x00
T3CCC 000:154.898 JLINK_ReadMemU32(0xE000EDF0, 0x1 Items)
T3CCC 000:154.912   CPU_ReadMem(4 bytes @ 0xE000EDF0)
T3CCC 000:155.399   Data:  03 00 03 00
T3CCC 000:155.427   Debug reg: DHCSR
T3CCC 000:155.438 - 0.543ms returns 1 (0x1)
T3CCC 000:155.470 JLINK_WriteU32_64(0xE000EDF0, 0xA05F0003)
T3CCC 000:155.480   Debug reg: DHCSR
T3CCC 000:155.999   CPU_WriteMem(4 bytes @ 0xE000EDF0)
T3CCC 000:156.364 - 0.913ms returns 0 (0x00000000)
T3CCC 000:156.404 JLINK_WriteU32_64(0xE000EDFC, 0x01000000)
T3CCC 000:156.414   Debug reg: DEMCR
T3CCC 000:156.437   CPU_WriteMem(4 bytes @ 0xE000EDFC)
T3CCC 000:156.858 - 0.473ms returns 0 (0x00000000)
T3CCC 000:156.928 JLINK_GetHWStatus(...)
T3CCC 000:157.332 - 0.425ms returns 0
T3CCC 000:157.590 JLINK_GetNumBPUnits(Type = 0xFFFFFF00)
T3CCC 000:157.617 - 0.031ms returns 0x06
T3CCC 000:157.628 JLINK_GetNumBPUnits(Type = 0xF0)
T3CCC 000:157.636 - 0.011ms returns 0x2000
T3CCC 000:157.645 JLINK_GetNumWPUnits()
T3CCC 000:157.652 - 0.010ms returns 4
T3CCC 000:157.685 JLINK_GetSpeed()
T3CCC 000:157.694 - 0.012ms returns 5000
T3CCC 000:157.710 JLINK_ReadMemU32(0xE000E004, 0x1 Items)
T3CCC 000:157.728   CPU_ReadMem(4 bytes @ 0xE000E004)
T3CCC 000:158.251   Data:  03 00 00 00
T3CCC 000:158.279 - 0.573ms returns 1 (0x1)
T3CCC 000:158.293 JLINK_ReadMemU32(0xE000E004, 0x1 Items)
T3CCC 000:158.311   CPU_ReadMem(4 bytes @ 0xE000E004)
T3CCC 000:158.813   Data:  03 00 00 00
T3CCC 000:158.841 - 0.552ms returns 1 (0x1)
T3CCC 000:158.855 JLINK_WriteMemEx(0xE0001000, 0x0000001C Bytes, Flags = 0x02000004)
T3CCC 000:158.864   Data:  01 00 00 00 00 00 00 00 00 00 00 00 00 00 00 00 ...
T3CCC 000:158.888   CPU_WriteMem(28 bytes @ 0xE0001000)
T3CCC 000:159.473 - 0.638ms returns 0x1C
T3CCC 000:159.504 JLINK_HasError()
T3CCC 000:159.516 JLINK_ReadReg(R15 (PC))
T3CCC 000:159.529 - 0.017ms returns 0x0800027C
T3CCC 000:159.539 JLINK_ReadReg(XPSR)
T3CCC 000:159.547 - 0.012ms returns 0x01000000
T3CCC 000:169.915 JLINK_ReadMemEx(0xE0001004, 0x4 Bytes, Flags = 0x02000000)
T3CCC 000:169.962   Data:  00 00 00 00
T3CCC 000:169.976   Debug reg: DWT_CYCCNT
T3CCC 000:169.988 - 0.077ms returns 4 (0x4)
T3CCC 000:312.729 JLINK_HasError()
T3CCC 000:312.827 JLINK_SetResetType(JLINKARM_CM3_RESET_TYPE_NORMAL)
T3CCC 000:312.842 - 0.020ms returns JLINKARM_CM3_RESET_TYPE_NORMAL
T3CCC 000:312.857 JLINK_Reset()
T3CCC 000:312.903   CPU_WriteMem(4 bytes @ 0xE000EDF0)
T3CCC 000:313.386   CPU_WriteMem(4 bytes @ 0xE000EDFC)
T3CCC 000:313.821   Reset: Halt core after reset via DEMCR.VC_CORERESET.
T3CCC 000:313.866   Reset: Reset device via AIRCR.SYSRESETREQ.
T3CCC 000:313.888   CPU_WriteMem(4 bytes @ 0xE000ED0C)
T3CCC 000:366.420   CPU_ReadMem(4 bytes @ 0xE000EDF0)
T3CCC 000:367.033   CPU_ReadMem(4 bytes @ 0xE000EDF0)
T3CCC 000:367.432   CPU_WriteMem(4 bytes @ 0xE000EDF0)
T3CCC 000:367.930   CPU_WriteMem(4 bytes @ 0xE000EDFC)
T3CCC 000:374.476   CPU_ReadMem(4 bytes @ 0xE000EDF0)
T3CCC 000:377.639   CPU_WriteMem(4 bytes @ 0xE000EDFC)
T3CCC 000:378.253   CPU_WriteMem(4 bytes @ 0xE0001028)
T3CCC 000:378.610   CPU_WriteMem(4 bytes @ 0xE0001038)
T3CCC 000:378.992   CPU_WriteMem(4 bytes @ 0xE0001048)
T3CCC 000:379.405   CPU_WriteMem(4 bytes @ 0xE0001058)
T3CCC 000:379.843   CPU_WriteMem(4 bytes @ 0xE0002000)
T3CCC 000:380.212   CPU_ReadMem(4 bytes @ 0xE000EDFC)
T3CCC 000:380.621   CPU_ReadMem(4 bytes @ 0xE0001000)
T3CCC 000:381.091 - 68.251ms
T3CCC 000:381.393 JLINK_HasError()
T3CCC 000:381.424 JLINK_ReadReg(R15 (PC))
T3CCC 000:381.451 - 0.032ms returns 0x0800027C
T3CCC 000:381.467 JLINK_ReadReg(XPSR)
T3CCC 000:381.481 - 0.019ms returns 0x01000000
T3CCC 000:382.480 JLINK_ReadMemEx(0x0800027C, 0x3C Bytes, Flags = 0x02000000)
T3CCC 000:382.529   CPU_ReadMem(128 bytes @ 0x08000240)
T3CCC 000:384.140    -- Updating C cache (128 bytes @ 0x08000240)
T3CCC 000:384.238    -- Read from C cache (60 bytes @ 0x0800027C)
T3CCC 000:384.261   Data:  09 48 80 47 09 48 00 47 FE E7 FE E7 FE E7 FE E7 ...
T3CCC 000:384.277 - 1.803ms returns 60 (0x3C)
T3CCC 000:384.307 JLINK_ReadMemEx(0x0800027C, 0x2 Bytes, Flags = 0x02000000)
T3CCC 000:384.326    -- Read from C cache (2 bytes @ 0x0800027C)
T3CCC 000:384.342   Data:  09 48
T3CCC 000:384.358 - 0.056ms returns 2 (0x2)
T3CCC 000:385.108 JLINK_ReadMemEx(0x0800027E, 0x2 Bytes, Flags = 0x02000000)
T3CCC 000:385.153    -- Read from C cache (2 bytes @ 0x0800027E)
T3CCC 000:385.171   Data:  80 47
T3CCC 000:385.187 - 0.084ms returns 2 (0x2)
T3CCC 000:385.242 JLINK_ReadMemEx(0x0800027E, 0x2 Bytes, Flags = 0x02000000)
T3CCC 000:385.257    -- Read from C cache (2 bytes @ 0x0800027E)
T3CCC 000:385.274   Data:  80 47
T3CCC 000:385.289 - 0.052ms returns 2 (0x2)
T3CCC 000:385.302 JLINK_ReadMemEx(0x08000280, 0x3C Bytes, Flags = 0x02000000)
T3CCC 000:385.314    -- Read from C cache (60 bytes @ 0x08000280)
T3CCC 000:385.331   Data:  09 48 00 47 FE E7 FE E7 FE E7 FE E7 FE E7 FE E7 ...
T3CCC 000:385.345 - 0.048ms returns 60 (0x3C)
T3CCC 000:385.358 JLINK_ReadMemEx(0x08000280, 0x2 Bytes, Flags = 0x02000000)
T3CCC 000:385.369    -- Read from C cache (2 bytes @ 0x08000280)
T3CCC 000:385.384   Data:  09 48
T3CCC 000:385.400 - 0.047ms returns 2 (0x2)
T3CCC 000:596.099 JLINK_ReadMemEx(0x40005400, 0x18 Bytes, Flags = 0x02000004)
T3CCC 000:596.197   CPU_ReadMem(24 bytes @ 0x40005400)
T3CCC 000:596.780   Data:  00 00 00 00 00 00 00 00 00 00 00 00 00 00 00 00 ...
T3CCC 000:596.795 - 0.701ms returns 24 (0x18)
T3CCC 000:596.822 JLINK_ReadMemEx(0x40005418, 0x4 Bytes, Flags = 0x02000004)
T3CCC 000:596.843   CPU_ReadMem(4 bytes @ 0x40005418)
T3CCC 000:597.271   Data:  01 00 00 00
T3CCC 000:597.282 - 0.463ms returns 4 (0x4)
T3CCC 000:597.293 JLINK_ReadMemEx(0x40005420, 0x8 Bytes, Flags = 0x02000004)
T3CCC 000:597.304   CPU_ReadMem(8 bytes @ 0x40005420)
T3CCC 000:597.699   Data:  00 00 00 00 00 00 00 00
T3CCC 000:597.709 - 0.419ms returns 8 (0x8)
T3CCC 000:597.719 JLINK_ReadMemEx(0x40005428, 0x4 Bytes, Flags = 0x02000004)
T3CCC 000:597.729   CPU_ReadMem(4 bytes @ 0x40005428)
T3CCC 000:598.092   Data:  00 00 00 00
T3CCC 000:598.228 - 0.512ms returns 4 (0x4)
T3CCC 002:675.236 JLINK_ReadMemEx(0x0800027C, 0x3C Bytes, Flags = 0x02000000)
T3CCC 002:675.328    -- Read from C cache (60 bytes @ 0x0800027C)
T3CCC 002:675.340   Data:  09 48 80 47 09 48 00 47 FE E7 FE E7 FE E7 FE E7 ...
T3CCC 002:675.349 - 0.116ms returns 60 (0x3C)
T3CCC 002:675.358 JLINK_ReadMemEx(0x0800027C, 0x2 Bytes, Flags = 0x02000000)
T3CCC 002:675.365    -- Read from C cache (2 bytes @ 0x0800027C)
T3CCC 002:675.373   Data:  09 48
T3CCC 002:675.383 - 0.028ms returns 2 (0x2)
T3CCC 002:675.392 JLINK_ReadMemEx(0x0800027E, 0x2 Bytes, Flags = 0x02000000)
T3CCC 002:675.399    -- Read from C cache (2 bytes @ 0x0800027E)
T3CCC 002:675.408   Data:  80 47
T3CCC 002:675.417 - 0.028ms returns 2 (0x2)
T3CCC 002:675.438 JLINK_ReadMemEx(0x0800027E, 0x2 Bytes, Flags = 0x02000000)
T3CCC 002:675.445    -- Read from C cache (2 bytes @ 0x0800027E)
T3CCC 002:675.454   Data:  80 47
T3CCC 002:675.462 - 0.027ms returns 2 (0x2)
T3CCC 002:675.470 JLINK_ReadMemEx(0x08000280, 0x3C Bytes, Flags = 0x02000000)
T3CCC 002:675.476    -- Read from C cache (60 bytes @ 0x08000280)
T3CCC 002:675.486   Data:  09 48 00 47 FE E7 FE E7 FE E7 FE E7 FE E7 FE E7 ...
T3CCC 002:675.495 - 0.028ms returns 60 (0x3C)
T3CCC 002:675.502 JLINK_ReadMemEx(0x08000280, 0x2 Bytes, Flags = 0x02000000)
T3CCC 002:675.509    -- Read from C cache (2 bytes @ 0x08000280)
T3CCC 002:675.517   Data:  09 48
T3CCC 002:675.526 - 0.026ms returns 2 (0x2)
T3488 003:088.846 JLINK_ReadMemEx(0x0800027C, 0x2 Bytes, Flags = 0x02000000)
T3488 003:088.934    -- Read from C cache (2 bytes @ 0x0800027C)
T3488 003:088.948   Data:  09 48
T3488 003:088.961 - 0.119ms returns 2 (0x2)
T3488 003:088.974 JLINK_HasError()
T3488 003:088.989 JLINK_SetBPEx(Addr = 0x08004728, Type = 0xFFFFFFF2)
T3488 003:089.015 - 0.030ms returns 0x00000001
T3488 003:089.025 JLINK_HasError()
T3488 003:089.035 JLINK_HasError()
T3488 003:089.045 JLINK_Go()
T3488 003:089.399   CPU_ReadMem(4 bytes @ 0xE0001000)
T3488 003:089.677   CPU_WriteMem(4 bytes @ 0xE0002008)
T3488 003:089.695   CPU_WriteMem(4 bytes @ 0xE000200C)
T3488 003:089.708   CPU_WriteMem(4 bytes @ 0xE0002010)
T3488 003:089.718   CPU_WriteMem(4 bytes @ 0xE0002014)
T3488 003:089.729   CPU_WriteMem(4 bytes @ 0xE0002018)
T3488 003:089.739   CPU_WriteMem(4 bytes @ 0xE000201C)
T3488 003:090.776   CPU_WriteMem(4 bytes @ 0xE0001004)
T3488 003:091.678 - 2.670ms
T3488 003:192.413 JLINK_HasError()
T3488 003:192.458 JLINK_IsHalted()
T3488 003:194.421 - 1.987ms returns TRUE
T3488 003:194.457 JLINK_HasError()
T3488 003:194.469 JLINK_Halt()
T3488 003:194.477 - 0.013ms returns 0x00
T3488 003:194.487 JLINK_IsHalted()
T3488 003:194.496 - 0.012ms returns TRUE
T3488 003:194.506 JLINK_IsHalted()
T3488 003:194.513 - 0.010ms returns TRUE
T3488 003:194.522 JLINK_IsHalted()
T3488 003:194.530 - 0.011ms returns TRUE
T3488 003:194.540 JLINK_HasError()
T3488 003:194.550 JLINK_ReadReg(R15 (PC))
T3488 003:194.564 - 0.017ms returns 0x08004728
T3488 003:194.574 JLINK_ReadReg(XPSR)
T3488 003:194.583 - 0.012ms returns 0x61000000
T3488 003:194.598 JLINK_HasError()
T3488 003:194.607 JLINK_ClrBPEx(BPHandle = 0x00000001)
T3488 003:194.616 - 0.012ms returns 0x00
T3488 003:194.625 JLINK_HasError()
T3488 003:194.636 JLINK_HasError()
T3488 003:194.645 JLINK_ReadMemU32(0xE000ED30, 0x1 Items)
T3488 003:194.666   CPU_ReadMem(4 bytes @ 0xE000ED30)
T3488 003:194.969   Data:  02 00 00 00
T3488 003:194.984 - 0.342ms returns 1 (0x1)
T3488 003:194.995 JLINK_ReadMemU32(0xE0001028, 0x1 Items)
T3488 003:195.008   CPU_ReadMem(4 bytes @ 0xE0001028)
T3488 003:195.310   Data:  00 00 00 00
T3488 003:195.334   Debug reg: DWT_FUNC[0]
T3488 003:195.344 - 0.478ms returns 1 (0x1)
T3488 003:195.485 JLINK_ReadMemU32(0xE0001038, 0x1 Items)
T3488 003:195.503   CPU_ReadMem(4 bytes @ 0xE0001038)
T3488 003:197.439   Data:  00 02 00 00
T3488 003:197.461   Debug reg: DWT_FUNC[1]
T3488 003:197.470 - 1.987ms returns 1 (0x1)
T3488 003:197.481 JLINK_ReadMemU32(0xE0001048, 0x1 Items)
T3488 003:197.495   CPU_ReadMem(4 bytes @ 0xE0001048)
T3488 003:199.025   Data:  00 00 00 00
T3488 003:199.048   Debug reg: DWT_FUNC[2]
T3488 003:199.057 - 1.580ms returns 1 (0x1)
T3488 003:199.069 JLINK_ReadMemU32(0xE0001058, 0x1 Items)
T3488 003:199.084   CPU_ReadMem(4 bytes @ 0xE0001058)
T3488 003:200.361   Data:  00 00 00 00
T3488 003:200.383   Debug reg: DWT_FUNC[3]
T3488 003:201.038 - 1.990ms returns 1 (0x1)
T3488 003:201.163 JLINK_HasError()
T3488 003:201.182 JLINK_ReadReg(R0)
T3488 003:201.200 - 0.025ms returns 0x20000530
T3488 003:201.215 JLINK_ReadReg(R1)
T3488 003:201.228 - 0.019ms returns 0x20000730
T3488 003:201.242 JLINK_ReadReg(R2)
T3488 003:201.255 - 0.018ms returns 0x20000730
T3488 003:201.268 JLINK_ReadReg(R3)
T3488 003:201.280 - 0.017ms returns 0x20000730
T3488 003:201.294 JLINK_ReadReg(R4)
T3488 003:201.306 - 0.017ms returns 0x00000000
T3488 003:201.319 JLINK_ReadReg(R5)
T3488 003:201.331 - 0.018ms returns 0x200004D0
T3488 003:201.346 JLINK_ReadReg(R6)
T3488 003:201.358 - 0.017ms returns 0x00000000
T3488 003:201.371 JLINK_ReadReg(R7)
T3488 003:201.425 - 0.064ms returns 0x00000000
T3488 003:201.445 JLINK_ReadReg(R8)
T3488 003:201.465 - 0.022ms returns 0x00000000
T3488 003:201.472 JLINK_ReadReg(R9)
T3488 003:201.479 - 0.009ms returns 0x00000000
T3488 003:201.486 JLINK_ReadReg(R10)
T3488 003:201.492 - 0.009ms returns 0x08004D1C
T3488 003:201.500 JLINK_ReadReg(R11)
T3488 003:201.506 - 0.009ms returns 0x00000000
T3488 003:201.513 JLINK_ReadReg(R12)
T3488 003:201.519 - 0.009ms returns 0x00000000
T3488 003:201.527 JLINK_ReadReg(R13 (SP))
T3488 003:201.534 - 0.010ms returns 0x20000B30
T3488 003:201.541 JLINK_ReadReg(R14)
T3488 003:201.547 - 0.009ms returns 0x0800026D
T3488 003:201.555 JLINK_ReadReg(R15 (PC))
T3488 003:201.561 - 0.009ms returns 0x08004728
T3488 003:201.568 JLINK_ReadReg(XPSR)
T3488 003:201.575 - 0.009ms returns 0x61000000
T3488 003:201.582 JLINK_ReadReg(MSP)
T3488 003:201.588 - 0.009ms returns 0x20000B30
T3488 003:201.595 JLINK_ReadReg(PSP)
T3488 003:201.602 - 0.009ms returns 0x00000000
T3488 003:201.609 JLINK_ReadReg(CFBP)
T3488 003:201.615 - 0.009ms returns 0x04000000
T3488 003:201.623 JLINK_ReadReg(FPSCR)
T3488 003:204.685 - 3.081ms returns 0x03000000
T3488 003:204.715 JLINK_ReadReg(FPS0)
T3488 003:204.726 - 0.013ms returns 0x00000000
T3488 003:204.733 JLINK_ReadReg(FPS1)
T3488 003:204.740 - 0.009ms returns 0x00000000
T3488 003:204.747 JLINK_ReadReg(FPS2)
T3488 003:204.753 - 0.009ms returns 0x00000000
T3488 003:204.760 JLINK_ReadReg(FPS3)
T3488 003:204.766 - 0.009ms returns 0x00000000
T3488 003:204.774 JLINK_ReadReg(FPS4)
T3488 003:204.780 - 0.009ms returns 0x00000000
T3488 003:204.787 JLINK_ReadReg(FPS5)
T3488 003:204.793 - 0.009ms returns 0x00000000
T3488 003:204.800 JLINK_ReadReg(FPS6)
T3488 003:204.806 - 0.009ms returns 0x00000000
T3488 003:204.813 JLINK_ReadReg(FPS7)
T3488 003:204.819 - 0.009ms returns 0x00000000
T3488 003:204.826 JLINK_ReadReg(FPS8)
T3488 003:204.833 - 0.009ms returns 0x00000000
T3488 003:204.841 JLINK_ReadReg(FPS9)
T3488 003:204.847 - 0.009ms returns 0x00000000
T3488 003:204.854 JLINK_ReadReg(FPS10)
T3488 003:204.860 - 0.009ms returns 0x00000000
T3488 003:204.868 JLINK_ReadReg(FPS11)
T3488 003:204.874 - 0.009ms returns 0x00000000
T3488 003:204.881 JLINK_ReadReg(FPS12)
T3488 003:204.887 - 0.009ms returns 0x00000000
T3488 003:204.894 JLINK_ReadReg(FPS13)
T3488 003:204.901 - 0.009ms returns 0x00000000
T3488 003:204.908 JLINK_ReadReg(FPS14)
T3488 003:204.914 - 0.009ms returns 0x00000000
T3488 003:204.921 JLINK_ReadReg(FPS15)
T3488 003:204.927 - 0.009ms returns 0x00000000
T3488 003:204.934 JLINK_ReadReg(FPS16)
T3488 003:204.940 - 0.009ms returns 0x00000000
T3488 003:204.947 JLINK_ReadReg(FPS17)
T3488 003:204.954 - 0.009ms returns 0x00000000
T3488 003:204.961 JLINK_ReadReg(FPS18)
T3488 003:204.967 - 0.009ms returns 0x00000000
T3488 003:204.974 JLINK_ReadReg(FPS19)
T3488 003:204.980 - 0.009ms returns 0x00000000
T3488 003:204.987 JLINK_ReadReg(FPS20)
T3488 003:204.994 - 0.009ms returns 0x00000000
T3488 003:205.007 JLINK_ReadReg(FPS21)
T3488 003:205.018 - 0.014ms returns 0x00000000
T3488 003:205.025 JLINK_ReadReg(FPS22)
T3488 003:205.031 - 0.009ms returns 0x00000000
T3488 003:205.039 JLINK_ReadReg(FPS23)
T3488 003:205.045 - 0.009ms returns 0x00000000
T3488 003:205.052 JLINK_ReadReg(FPS24)
T3488 003:205.058 - 0.009ms returns 0x00000000
T3488 003:205.065 JLINK_ReadReg(FPS25)
T3488 003:205.072 - 0.009ms returns 0x00000000
T3488 003:205.079 JLINK_ReadReg(FPS26)
T3488 003:205.085 - 0.009ms returns 0x00000000
T3488 003:205.092 JLINK_ReadReg(FPS27)
T3488 003:205.098 - 0.009ms returns 0x00000000
T3488 003:205.105 JLINK_ReadReg(FPS28)
T3488 003:205.111 - 0.009ms returns 0x00000000
T3488 003:205.118 JLINK_ReadReg(FPS29)
T3488 003:205.124 - 0.009ms returns 0x00000000
T3488 003:205.132 JLINK_ReadReg(FPS30)
T3488 003:205.138 - 0.009ms returns 0x00000000
T3488 003:205.145 JLINK_ReadReg(FPS31)
T3488 003:205.151 - 0.009ms returns 0x00000000
T3CCC 003:206.602 JLINK_ReadMemEx(0xE000ED28, 0x4 Bytes, Flags = 0x02000000)
T3CCC 003:206.669   CPU_ReadMem(4 bytes @ 0xE000ED28)
T3CCC 003:206.964   Data:  00 00 00 00
T3CCC 003:206.977 - 0.378ms returns 4 (0x4)
T3CCC 003:216.638 JLINK_HasError()
T3CCC 003:216.667 JLINK_ReadMemU32(0xE0001004, 0x1 Items)
T3CCC 003:216.690   CPU_ReadMem(4 bytes @ 0xE0001004)
T3CCC 003:217.001   Data:  5F 0B 00 00
T3CCC 003:217.015   Debug reg: DWT_CYCCNT
T3CCC 003:217.024 - 0.361ms returns 1 (0x1)
T3CCC 003:217.659 JLINK_ReadMemEx(0x40005400, 0x18 Bytes, Flags = 0x02000004)
T3CCC 003:217.686   CPU_ReadMem(24 bytes @ 0x40005400)
T3CCC 003:218.113   Data:  00 00 00 00 00 00 00 00 00 00 00 00 00 00 00 00 ...
T3CCC 003:218.126 - 0.470ms returns 24 (0x18)
T3CCC 003:218.138 JLINK_ReadMemEx(0x40005418, 0x4 Bytes, Flags = 0x02000004)
T3CCC 003:218.151   CPU_ReadMem(4 bytes @ 0x40005418)
T3CCC 003:218.475   Data:  01 00 00 00
T3CCC 003:218.489 - 0.353ms returns 4 (0x4)
T3CCC 003:218.500 JLINK_ReadMemEx(0x40005420, 0x8 Bytes, Flags = 0x02000004)
T3CCC 003:218.512   CPU_ReadMem(8 bytes @ 0x40005420)
T3CCC 003:218.852   Data:  00 00 00 00 00 00 00 00
T3CCC 003:218.872 - 0.375ms returns 8 (0x8)
T3CCC 003:218.883 JLINK_ReadMemEx(0x40005428, 0x4 Bytes, Flags = 0x02000004)
T3CCC 003:218.896   CPU_ReadMem(4 bytes @ 0x40005428)
T3CCC 003:219.403   Data:  00 00 00 00
T3CCC 003:219.419 - 0.539ms returns 4 (0x4)
T3CCC 008:776.515 JLINK_ReadMemEx(0x0800476C, 0x3C Bytes, Flags = 0x02000000)
T3CCC 008:776.643   CPU_ReadMem(128 bytes @ 0x08004740)
T3CCC 008:778.649    -- Updating C cache (128 bytes @ 0x08004740)
T3CCC 008:778.748    -- Read from C cache (60 bytes @ 0x0800476C)
T3CCC 008:778.771   Data:  15 48 24 30 FC F7 F0 F9 08 B1 72 B6 FE E7 64 25 ...
T3CCC 008:778.787 - 2.278ms returns 60 (0x3C)
T3CCC 008:778.817 JLINK_ReadMemEx(0x0800476C, 0x2 Bytes, Flags = 0x02000000)
T3CCC 008:778.836    -- Read from C cache (2 bytes @ 0x0800476C)
T3CCC 008:778.852   Data:  15 48
T3CCC 008:778.869 - 0.058ms returns 2 (0x2)
T3CCC 008:778.890 JLINK_ReadMemEx(0x0800476E, 0x2 Bytes, Flags = 0x02000000)
T3CCC 008:778.902    -- Read from C cache (2 bytes @ 0x0800476E)
T3CCC 008:778.918   Data:  24 30
T3CCC 008:778.933 - 0.047ms returns 2 (0x2)
T3CCC 008:778.986 JLINK_ReadMemEx(0x0800476E, 0x2 Bytes, Flags = 0x02000000)
T3CCC 008:779.000    -- Read from C cache (2 bytes @ 0x0800476E)
T3CCC 008:779.015   Data:  24 30
T3CCC 008:779.030 - 0.049ms returns 2 (0x2)
T3CCC 008:779.043 JLINK_ReadMemEx(0x08004770, 0x3C Bytes, Flags = 0x02000000)
T3CCC 008:779.054    -- Read from C cache (60 bytes @ 0x08004770)
T3CCC 008:779.071   Data:  FC F7 F0 F9 08 B1 72 B6 FE E7 64 25 0D AE 4F F4 ...
T3CCC 008:779.086 - 0.048ms returns 60 (0x3C)
T3CCC 008:779.098 JLINK_ReadMemEx(0x08004770, 0x2 Bytes, Flags = 0x02000000)
T3CCC 008:779.110    -- Read from C cache (2 bytes @ 0x08004770)
T3CCC 008:779.125   Data:  FC F7
T3CCC 008:779.140 - 0.047ms returns 2 (0x2)
T3CCC 008:779.158 JLINK_ReadMemEx(0x08004770, 0x3C Bytes, Flags = 0x02000000)
T3CCC 008:779.170    -- Read from C cache (60 bytes @ 0x08004770)
T3CCC 008:779.223   Data:  FC F7 F0 F9 08 B1 72 B6 FE E7 64 25 0D AE 4F F4 ...
T3CCC 008:779.239 - 0.086ms returns 60 (0x3C)
T3CCC 008:779.251 JLINK_ReadMemEx(0x08004770, 0x2 Bytes, Flags = 0x02000000)
T3CCC 008:779.263    -- Read from C cache (2 bytes @ 0x08004770)
T3CCC 008:779.278   Data:  FC F7
T3CCC 008:779.293 - 0.046ms returns 2 (0x2)
T3CCC 008:779.305 JLINK_ReadMemEx(0x08004772, 0x2 Bytes, Flags = 0x02000000)
T3CCC 008:779.316    -- Read from C cache (2 bytes @ 0x08004772)
T3CCC 008:779.331   Data:  F0 F9
T3CCC 008:779.346 - 0.046ms returns 2 (0x2)
T3CCC 008:779.386 JLINK_ReadMemEx(0x08004774, 0x3C Bytes, Flags = 0x02000000)
T3CCC 008:779.399    -- Read from C cache (60 bytes @ 0x08004774)
T3CCC 008:779.415   Data:  08 B1 72 B6 FE E7 64 25 0D AE 4F F4 7A 77 10 48 ...
T3CCC 008:779.431 - 0.049ms returns 60 (0x3C)
T3CCC 008:779.443 JLINK_ReadMemEx(0x08004774, 0x2 Bytes, Flags = 0x02000000)
T3CCC 008:779.454    -- Read from C cache (2 bytes @ 0x08004774)
T3CCC 008:779.469   Data:  08 B1
T3CCC 008:779.484 - 0.046ms returns 2 (0x2)
T3CCC 008:779.497 JLINK_ReadMemEx(0x08004776, 0x2 Bytes, Flags = 0x02000000)
T3CCC 008:779.508    -- Read from C cache (2 bytes @ 0x08004776)
T3CCC 008:779.524   Data:  72 B6
T3CCC 008:779.539 - 0.046ms returns 2 (0x2)
T3CCC 008:871.723 JLINK_ReadMemEx(0x20000080, 0x4 Bytes, Flags = 0x02000000)
T3CCC 008:871.812   CPU_ReadMem(64 bytes @ 0x20000080)
T3CCC 008:872.843    -- Updating C cache (64 bytes @ 0x20000080)
T3CCC 008:872.906    -- Read from C cache (4 bytes @ 0x20000080)
T3CCC 008:872.921   Data:  00 00 00 00
T3CCC 008:872.934 - 1.215ms returns 4 (0x4)
T3CCC 008:873.108 JLINK_ReadMemEx(0x20000084, 0x4 Bytes, Flags = 0x02000000)
T3CCC 008:873.131    -- Read from C cache (4 bytes @ 0x20000084)
T3CCC 008:873.142   Data:  00 00 00 00
T3CCC 008:873.154 - 0.049ms returns 4 (0x4)
T3CCC 008:873.165 JLINK_ReadMemEx(0x20000088, 0x4 Bytes, Flags = 0x02000000)
T3CCC 008:873.174    -- Read from C cache (4 bytes @ 0x20000088)
T3CCC 008:873.188   Data:  00 00 00 00
T3CCC 008:873.198 - 0.037ms returns 4 (0x4)
T3CCC 008:873.213 JLINK_ReadMemEx(0x2000008C, 0x4 Bytes, Flags = 0x02000000)
T3CCC 008:873.222    -- Read from C cache (4 bytes @ 0x2000008C)
T3CCC 008:873.233   Data:  00 00 00 00
T3CCC 008:873.243 - 0.033ms returns 4 (0x4)
T3CCC 008:873.253 JLINK_ReadMemEx(0x20000090, 0x4 Bytes, Flags = 0x02000000)
T3CCC 008:873.262    -- Read from C cache (4 bytes @ 0x20000090)
T3CCC 008:873.272   Data:  00 00 00 00
T3CCC 008:873.283 - 0.033ms returns 4 (0x4)
T3CCC 008:873.292 JLINK_ReadMemEx(0x20000094, 0x4 Bytes, Flags = 0x02000000)
T3CCC 008:873.301    -- Read from C cache (4 bytes @ 0x20000094)
T3CCC 008:873.312   Data:  00 00 00 00
T3CCC 008:873.322 - 0.033ms returns 4 (0x4)
T3CCC 008:873.332 JLINK_ReadMemEx(0x20000098, 0x4 Bytes, Flags = 0x02000000)
T3CCC 008:873.342    -- Read from C cache (4 bytes @ 0x20000098)
T3CCC 008:873.356   Data:  00 00 00 00
T3CCC 008:873.369 - 0.042ms returns 4 (0x4)
T3CCC 008:873.382 JLINK_ReadMemEx(0x2000009C, 0x4 Bytes, Flags = 0x02000000)
T3CCC 008:873.393    -- Read from C cache (4 bytes @ 0x2000009C)
T3CCC 008:873.407   Data:  00 00 00 00
T3CCC 008:873.420 - 0.042ms returns 4 (0x4)
T3CCC 008:873.432 JLINK_ReadMemEx(0x200000A0, 0x4 Bytes, Flags = 0x02000000)
T3CCC 008:873.443    -- Read from C cache (4 bytes @ 0x200000A0)
T3CCC 008:873.456   Data:  00 00 00 00
T3CCC 008:873.469 - 0.041ms returns 4 (0x4)
T3CCC 008:873.482 JLINK_ReadMemEx(0x200000A4, 0x4 Bytes, Flags = 0x02000000)
T3CCC 008:873.492    -- Read from C cache (4 bytes @ 0x200000A4)
T3CCC 008:873.506   Data:  00 00 00 00
T3CCC 008:873.519 - 0.042ms returns 4 (0x4)
T3CCC 008:873.532 JLINK_ReadMemEx(0x200000A8, 0x2 Bytes, Flags = 0x02000000)
T3CCC 008:873.543    -- Read from C cache (2 bytes @ 0x200000A8)
T3CCC 008:873.556   Data:  00 00
T3CCC 008:873.569 - 0.042ms returns 2 (0x2)
T3CCC 008:873.582 JLINK_ReadMemEx(0x200000AA, 0x2 Bytes, Flags = 0x02000000)
T3CCC 008:873.593    -- Read from C cache (2 bytes @ 0x200000AA)
T3CCC 008:873.606   Data:  00 00
T3CCC 008:873.732 - 0.154ms returns 2 (0x2)
T3CCC 008:873.745 JLINK_ReadMemEx(0x200000AC, 0x4 Bytes, Flags = 0x02000000)
T3CCC 008:873.758    -- Read from C cache (4 bytes @ 0x200000AC)
T3CCC 008:873.772   Data:  00 00 00 00
T3CCC 008:873.785 - 0.043ms returns 4 (0x4)
T3CCC 008:873.797 JLINK_ReadMemEx(0x200000B0, 0x4 Bytes, Flags = 0x02000000)
T3CCC 008:873.808    -- Read from C cache (4 bytes @ 0x200000B0)
T3CCC 008:873.820   Data:  00 00 00 00
T3CCC 008:873.833 - 0.041ms returns 4 (0x4)
T3CCC 008:873.846 JLINK_ReadMemEx(0x200000B4, 0x4 Bytes, Flags = 0x02000000)
T3CCC 008:873.857    -- Read from C cache (4 bytes @ 0x200000B4)
T3CCC 008:873.870   Data:  00 00 00 00
T3CCC 008:873.883 - 0.041ms returns 4 (0x4)
T3CCC 008:873.896 JLINK_ReadMemEx(0x200000B8, 0x4 Bytes, Flags = 0x02000000)
T3CCC 008:873.907    -- Read from C cache (4 bytes @ 0x200000B8)
T3CCC 008:873.920   Data:  00 00 00 00
T3CCC 008:873.933 - 0.041ms returns 4 (0x4)
T3CCC 008:873.945 JLINK_ReadMemEx(0x200000BC, 0x4 Bytes, Flags = 0x02000000)
T3CCC 008:873.956    -- Read from C cache (4 bytes @ 0x200000BC)
T3CCC 008:873.969   Data:  00 00 00 00
T3CCC 008:873.983 - 0.042ms returns 4 (0x4)
T3CCC 008:873.996 JLINK_ReadMemEx(0x200000C0, 0x1 Bytes, Flags = 0x02000000)
T3CCC 008:874.018   CPU_ReadMem(64 bytes @ 0x200000C0)
T3CCC 008:875.046    -- Updating C cache (64 bytes @ 0x200000C0)
T3CCC 008:875.081    -- Read from C cache (1 bytes @ 0x200000C0)
T3CCC 008:875.095   Data:  00
T3CCC 008:875.108 - 1.117ms returns 1 (0x1)
T3CCC 008:875.133 JLINK_ReadMemEx(0x200000C1, 0x1 Bytes, Flags = 0x02000000)
T3CCC 008:875.151    -- Read from C cache (1 bytes @ 0x200000C1)
T3CCC 008:875.164   Data:  00
T3CCC 008:875.176 - 0.047ms returns 1 (0x1)
T3488 014:333.456 JLINK_ReadMemEx(0x08004728, 0x2 Bytes, Flags = 0x02000000)
T3488 014:333.572   CPU_ReadMem(64 bytes @ 0x08004700)
T3488 014:334.654    -- Updating C cache (64 bytes @ 0x08004700)
T3488 014:334.692    -- Read from C cache (2 bytes @ 0x08004728)
T3488 014:334.708   Data:  8E B0
T3488 014:334.721 - 1.270ms returns 2 (0x2)
T3488 014:334.741 JLINK_HasError()
T3488 014:334.755 JLINK_SetBPEx(Addr = 0x0800476C, Type = 0xFFFFFFF2)
T3488 014:334.788 - 0.037ms returns 0x00000002
T3488 014:334.800 JLINK_HasError()
T3488 014:334.811 JLINK_HasError()
T3488 014:334.824 JLINK_Go()
T3488 014:335.466   CPU_ReadMem(4 bytes @ 0xE0001000)
T3488 014:336.150   CPU_WriteMem(4 bytes @ 0xE0002008)
T3488 014:337.472 - 2.673ms
T3488 014:438.417 JLINK_HasError()
T3488 014:438.498 JLINK_IsHalted()
T3488 014:440.609 - 2.134ms returns TRUE
T3488 014:440.654 JLINK_HasError()
T3488 014:440.665 JLINK_Halt()
T3488 014:440.673 - 0.012ms returns 0x00
T3488 014:440.683 JLINK_IsHalted()
T3488 014:440.691 - 0.011ms returns TRUE
T3488 014:440.700 JLINK_IsHalted()
T3488 014:440.707 - 0.011ms returns TRUE
T3488 014:440.716 JLINK_IsHalted()
T3488 014:440.723 - 0.010ms returns TRUE
T3488 014:440.734 JLINK_HasError()
T3488 014:440.744 JLINK_ReadReg(R15 (PC))
T3488 014:440.758 - 0.019ms returns 0x0800476C
T3488 014:440.769 JLINK_ReadReg(XPSR)
T3488 014:440.777 - 0.012ms returns 0x61000000
T3488 014:440.792 JLINK_HasError()
T3488 014:440.801 JLINK_ClrBPEx(BPHandle = 0x00000002)
T3488 014:440.811 - 0.013ms returns 0x00
T3488 014:440.820 JLINK_HasError()
T3488 014:440.829 JLINK_HasError()
T3488 014:440.838 JLINK_ReadMemU32(0xE000ED30, 0x1 Items)
T3488 014:440.858   CPU_ReadMem(4 bytes @ 0xE000ED30)
T3488 014:441.374   Data:  02 00 00 00
T3488 014:441.403 - 0.569ms returns 1 (0x1)
T3488 014:441.426 JLINK_ReadMemU32(0xE0001028, 0x1 Items)
T3488 014:441.445   CPU_ReadMem(4 bytes @ 0xE0001028)
T3488 014:441.915   Data:  00 00 00 00
T3488 014:441.944   Debug reg: DWT_FUNC[0]
T3488 014:441.955 - 0.533ms returns 1 (0x1)
T3488 014:441.977 JLINK_ReadMemU32(0xE0001038, 0x1 Items)
T3488 014:441.996   CPU_ReadMem(4 bytes @ 0xE0001038)
T3488 014:442.397   Data:  00 02 00 00
T3488 014:442.426   Debug reg: DWT_FUNC[1]
T3488 014:442.437 - 0.464ms returns 1 (0x1)
T3488 014:442.460 JLINK_ReadMemU32(0xE0001048, 0x1 Items)
T3488 014:442.489   CPU_ReadMem(4 bytes @ 0xE0001048)
T3488 014:442.915   Data:  00 00 00 00
T3488 014:442.944   Debug reg: DWT_FUNC[2]
T3488 014:442.955 - 0.498ms returns 1 (0x1)
T3488 014:442.977 JLINK_ReadMemU32(0xE0001058, 0x1 Items)
T3488 014:442.995   CPU_ReadMem(4 bytes @ 0xE0001058)
T3488 014:443.425   Data:  00 00 00 00
T3488 014:443.457   Debug reg: DWT_FUNC[3]
T3488 014:443.468 - 0.495ms returns 1 (0x1)
T3488 014:443.549 JLINK_HasError()
T3488 014:443.560 JLINK_ReadReg(R0)
T3488 014:443.574 - 0.018ms returns 0x00000000
T3488 014:443.584 JLINK_ReadReg(R1)
T3488 014:443.592 - 0.012ms returns 0x00000020
T3488 014:443.601 JLINK_ReadReg(R2)
T3488 014:443.609 - 0.011ms returns 0x00000000
T3488 014:443.618 JLINK_ReadReg(R3)
T3488 014:443.625 - 0.011ms returns 0x40013800
T3488 014:443.634 JLINK_ReadReg(R4)
T3488 014:443.642 - 0.011ms returns 0x00000001
T3488 014:443.651 JLINK_ReadReg(R5)
T3488 014:443.659 - 0.011ms returns 0x200004D0
T3488 014:443.668 JLINK_ReadReg(R6)
T3488 014:443.676 - 0.011ms returns 0x00000000
T3488 014:443.685 JLINK_ReadReg(R7)
T3488 014:443.692 - 0.011ms returns 0x00000000
T3488 014:443.701 JLINK_ReadReg(R8)
T3488 014:443.709 - 0.011ms returns 0x00000000
T3488 014:443.717 JLINK_ReadReg(R9)
T3488 014:443.725 - 0.011ms returns 0x00000000
T3488 014:443.733 JLINK_ReadReg(R10)
T3488 014:443.741 - 0.011ms returns 0x08004D1C
T3488 014:443.750 JLINK_ReadReg(R11)
T3488 014:443.758 - 0.011ms returns 0x00000000
T3488 014:443.767 JLINK_ReadReg(R12)
T3488 014:443.774 - 0.011ms returns 0x40008000
T3488 014:443.783 JLINK_ReadReg(R13 (SP))
T3488 014:443.792 - 0.012ms returns 0x20000AF8
T3488 014:443.800 JLINK_ReadReg(R14)
T3488 014:443.808 - 0.011ms returns 0x0800387D
T3488 014:443.817 JLINK_ReadReg(R15 (PC))
T3488 014:443.825 - 0.011ms returns 0x0800476C
T3488 014:443.833 JLINK_ReadReg(XPSR)
T3488 014:443.841 - 0.011ms returns 0x61000000
T3488 014:443.850 JLINK_ReadReg(MSP)
T3488 014:443.858 - 0.011ms returns 0x20000AF8
T3488 014:443.867 JLINK_ReadReg(PSP)
T3488 014:443.874 - 0.011ms returns 0x00000000
T3488 014:443.883 JLINK_ReadReg(CFBP)
T3488 014:443.890 - 0.011ms returns 0x04000000
T3488 014:443.899 JLINK_ReadReg(FPSCR)
T3488 014:446.700 - 2.820ms returns 0x03000000
T3488 014:446.739 JLINK_ReadReg(FPS0)
T3488 014:446.752 - 0.017ms returns 0x00000000
T3488 014:446.762 JLINK_ReadReg(FPS1)
T3488 014:446.770 - 0.011ms returns 0x00000000
T3488 014:446.779 JLINK_ReadReg(FPS2)
T3488 014:446.787 - 0.012ms returns 0x00000000
T3488 014:446.796 JLINK_ReadReg(FPS3)
T3488 014:446.804 - 0.011ms returns 0x00000000
T3488 014:446.813 JLINK_ReadReg(FPS4)
T3488 014:446.821 - 0.011ms returns 0x00000000
T3488 014:446.829 JLINK_ReadReg(FPS5)
T3488 014:446.837 - 0.011ms returns 0x00000000
T3488 014:446.846 JLINK_ReadReg(FPS6)
T3488 014:446.853 - 0.011ms returns 0x00000000
T3488 014:446.862 JLINK_ReadReg(FPS7)
T3488 014:446.870 - 0.011ms returns 0x00000000
T3488 014:446.879 JLINK_ReadReg(FPS8)
T3488 014:446.886 - 0.011ms returns 0x00000000
T3488 014:446.895 JLINK_ReadReg(FPS9)
T3488 014:446.903 - 0.011ms returns 0x00000000
T3488 014:446.912 JLINK_ReadReg(FPS10)
T3488 014:446.920 - 0.011ms returns 0x00000000
T3488 014:446.929 JLINK_ReadReg(FPS11)
T3488 014:446.936 - 0.011ms returns 0x00000000
T3488 014:446.945 JLINK_ReadReg(FPS12)
T3488 014:446.952 - 0.011ms returns 0x00000000
T3488 014:446.961 JLINK_ReadReg(FPS13)
T3488 014:446.969 - 0.011ms returns 0x00000000
T3488 014:446.978 JLINK_ReadReg(FPS14)
T3488 014:446.985 - 0.011ms returns 0x00000000
T3488 014:446.994 JLINK_ReadReg(FPS15)
T3488 014:447.002 - 0.011ms returns 0x00000000
T3488 014:447.011 JLINK_ReadReg(FPS16)
T3488 014:447.018 - 0.011ms returns 0x00000000
T3488 014:447.027 JLINK_ReadReg(FPS17)
T3488 014:447.034 - 0.011ms returns 0x00000000
T3488 014:447.043 JLINK_ReadReg(FPS18)
T3488 014:447.051 - 0.011ms returns 0x00000000
T3488 014:447.060 JLINK_ReadReg(FPS19)
T3488 014:447.067 - 0.011ms returns 0x00000000
T3488 014:447.076 JLINK_ReadReg(FPS20)
T3488 014:447.091 - 0.021ms returns 0x00000000
T3488 014:447.103 JLINK_ReadReg(FPS21)
T3488 014:447.111 - 0.011ms returns 0x00000000
T3488 014:447.119 JLINK_ReadReg(FPS22)
T3488 014:447.127 - 0.011ms returns 0x00000000
T3488 014:447.136 JLINK_ReadReg(FPS23)
T3488 014:447.144 - 0.011ms returns 0x00000000
T3488 014:447.153 JLINK_ReadReg(FPS24)
T3488 014:447.160 - 0.011ms returns 0x00000000
T3488 014:447.169 JLINK_ReadReg(FPS25)
T3488 014:447.176 - 0.011ms returns 0x00000000
T3488 014:447.185 JLINK_ReadReg(FPS26)
T3488 014:447.193 - 0.011ms returns 0x00000000
T3488 014:447.202 JLINK_ReadReg(FPS27)
T3488 014:447.210 - 0.011ms returns 0x00000000
T3488 014:447.219 JLINK_ReadReg(FPS28)
T3488 014:447.226 - 0.011ms returns 0x00000000
T3488 014:447.235 JLINK_ReadReg(FPS29)
T3488 014:447.242 - 0.011ms returns 0x00000000
T3488 014:447.251 JLINK_ReadReg(FPS30)
T3488 014:447.259 - 0.011ms returns 0x00000000
T3488 014:447.268 JLINK_ReadReg(FPS31)
T3488 014:447.276 - 0.012ms returns 0x00000000
T3CCC 014:447.654 JLINK_ReadMemEx(0xE000ED28, 0x4 Bytes, Flags = 0x02000000)
T3CCC 014:447.988   CPU_ReadMem(4 bytes @ 0xE000ED28)
T3CCC 014:448.356   Data:  00 00 00 00
T3CCC 014:448.384 - 0.734ms returns 4 (0x4)
T3CCC 014:448.432 JLINK_HasError()
T3CCC 014:448.444 JLINK_ReadMemU32(0xE0001004, 0x1 Items)
T3CCC 014:448.464   CPU_ReadMem(4 bytes @ 0xE0001004)
T3CCC 014:448.909   Data:  80 5C 00 00
T3CCC 014:448.938   Debug reg: DWT_CYCCNT
T3CCC 014:448.949 - 0.508ms returns 1 (0x1)
T3CCC 014:449.173 JLINK_ReadMemEx(0x40005400, 0x18 Bytes, Flags = 0x02000004)
T3CCC 014:449.196   CPU_ReadMem(24 bytes @ 0x40005400)
T3CCC 014:449.660   Data:  01 00 00 00 00 00 00 02 00 80 00 00 00 00 00 00 ...
T3CCC 014:449.688 - 0.518ms returns 24 (0x18)
T3CCC 014:449.705 JLINK_ReadMemEx(0x40005418, 0x4 Bytes, Flags = 0x02000004)
T3CCC 014:449.724   CPU_ReadMem(4 bytes @ 0x40005418)
T3CCC 014:450.131   Data:  01 00 00 00
T3CCC 014:450.159 - 0.457ms returns 4 (0x4)
T3CCC 014:450.176 JLINK_ReadMemEx(0x40005420, 0x8 Bytes, Flags = 0x02000004)
T3CCC 014:450.194   CPU_ReadMem(8 bytes @ 0x40005420)
T3CCC 014:450.641   Data:  00 00 00 00 00 00 00 00
T3CCC 014:450.669 - 0.496ms returns 8 (0x8)
T3CCC 014:450.685 JLINK_ReadMemEx(0x40005428, 0x4 Bytes, Flags = 0x02000004)
T3CCC 014:450.704   CPU_ReadMem(4 bytes @ 0x40005428)
T3CCC 014:451.194   Data:  00 00 00 00
T3CCC 014:451.223 - 0.541ms returns 4 (0x4)
T3488 016:429.635 JLINK_ReadMemEx(0x0800476C, 0x3C Bytes, Flags = 0x02000000)
T3488 016:429.732   CPU_ReadMem(128 bytes @ 0x08004740)
T3488 016:431.191    -- Updating C cache (128 bytes @ 0x08004740)
T3488 016:431.225    -- Read from C cache (60 bytes @ 0x0800476C)
T3488 016:431.240   Data:  15 48 24 30 FC F7 F0 F9 08 B1 72 B6 FE E7 64 25 ...
T3488 016:431.252 - 1.621ms returns 60 (0x3C)
T3488 016:431.267 JLINK_ReadMemEx(0x0800476C, 0x2 Bytes, Flags = 0x02000000)
T3488 016:431.281    -- Read from C cache (2 bytes @ 0x0800476C)
T3488 016:431.292   Data:  15 48
T3488 016:431.304 - 0.040ms returns 2 (0x2)
T3488 016:431.316 JLINK_ReadMemEx(0x0800476E, 0x2 Bytes, Flags = 0x02000000)
T3488 016:431.325    -- Read from C cache (2 bytes @ 0x0800476E)
T3488 016:431.336   Data:  24 30
T3488 016:431.347 - 0.034ms returns 2 (0x2)
T3488 016:431.359 JLINK_ReadMemEx(0x0800476C, 0x2 Bytes, Flags = 0x02000000)
T3488 016:431.368    -- Read from C cache (2 bytes @ 0x0800476C)
T3488 016:431.379   Data:  15 48
T3488 016:431.390 - 0.034ms returns 2 (0x2)
T3488 016:431.402 JLINK_HasError()
T3488 016:431.415 JLINK_Step()
T3488 016:432.087    -- Read from C cache (2 bytes @ 0x0800476C)
T3488 016:432.122   CPU_ReadMem(4 bytes @ 0xE000ED18)
T3488 016:432.751   CPU_WriteMem(4 bytes @ 0xE000ED18)
T3488 016:433.707   CPU_ReadMem(4 bytes @ 0xE000ED18)
T3488 016:434.370   CPU_WriteMem(4 bytes @ 0xE000ED18)
T3488 016:434.941   CPU_ReadMem(64 bytes @ 0x080047C0)
T3488 016:436.111    -- Updating C cache (64 bytes @ 0x080047C0)
T3488 016:436.152    -- Read from C cache (4 bytes @ 0x080047C4)
T3488 016:436.188   -- Simulated
T3488 016:436.207 - 4.810ms returns 0
T3488 016:436.246 JLINK_HasError()
T3488 016:436.263 JLINK_ReadReg(R15 (PC))
T3488 016:436.282 - 0.025ms returns 0x0800476E
T3488 016:436.297 JLINK_ReadReg(XPSR)
T3488 016:436.311 - 0.020ms returns 0x61000000
T3488 016:436.347 JLINK_ReadMemEx(0x0800476E, 0x2 Bytes, Flags = 0x02000000)
T3488 016:436.363    -- Read from C cache (2 bytes @ 0x0800476E)
T3488 016:436.381   Data:  24 30
T3488 016:436.398 - 0.057ms returns 2 (0x2)
T3488 016:436.429 JLINK_ReadMemEx(0x08004770, 0x3C Bytes, Flags = 0x02000000)
T3488 016:436.444    -- Read from C cache (60 bytes @ 0x08004770)
T3488 016:436.464   Data:  FC F7 F0 F9 08 B1 72 B6 FE E7 64 25 0D AE 4F F4 ...
T3488 016:436.481 - 0.056ms returns 60 (0x3C)
T3488 016:436.501 JLINK_ReadMemEx(0x08004770, 0x2 Bytes, Flags = 0x02000000)
T3488 016:436.515    -- Read from C cache (2 bytes @ 0x08004770)
T3488 016:436.532   Data:  FC F7
T3488 016:436.549 - 0.053ms returns 2 (0x2)
T3488 016:436.564 JLINK_HasError()
T3488 016:436.579 JLINK_Step()
T3488 016:436.595    -- Read from C cache (2 bytes @ 0x0800476E)
T3488 016:436.615   -- Simulated
T3488 016:436.631 - 0.058ms returns 0
T3488 016:436.652 JLINK_HasError()
T3488 016:436.865 JLINK_ReadReg(R15 (PC))
T3488 016:436.900 - 0.038ms returns 0x08004770
T3488 016:436.911 JLINK_ReadReg(XPSR)
T3488 016:436.920 - 0.012ms returns 0x01000000
T3488 016:436.939 JLINK_ReadMemEx(0x08004770, 0x3C Bytes, Flags = 0x02000000)
T3488 016:436.950    -- Read from C cache (60 bytes @ 0x08004770)
T3488 016:436.963   Data:  FC F7 F0 F9 08 B1 72 B6 FE E7 64 25 0D AE 4F F4 ...
T3488 016:436.974 - 0.039ms returns 60 (0x3C)
T3488 016:436.984 JLINK_ReadMemEx(0x08004770, 0x2 Bytes, Flags = 0x02000000)
T3488 016:436.992    -- Read from C cache (2 bytes @ 0x08004770)
T3488 016:437.003   Data:  FC F7
T3488 016:437.014 - 0.034ms returns 2 (0x2)
T3488 016:437.024 JLINK_ReadMemEx(0x08004772, 0x2 Bytes, Flags = 0x02000000)
T3488 016:437.032    -- Read from C cache (2 bytes @ 0x08004772)
T3488 016:437.043   Data:  F0 F9
T3488 016:437.054 - 0.033ms returns 2 (0x2)
T3488 016:437.082 JLINK_HasError()
T3488 016:437.092 JLINK_Step()
T3488 016:437.101    -- Read from C cache (2 bytes @ 0x08004770)
T3488 016:437.114    -- Read from C cache (2 bytes @ 0x08004772)
T3488 016:437.134   -- Simulated
T3488 016:437.145 - 0.057ms returns 0
T3488 016:437.155 JLINK_HasError()
T3488 016:437.164 JLINK_ReadReg(R15 (PC))
T3488 016:437.172 - 0.012ms returns 0x08000B54
T3488 016:437.181 JLINK_ReadReg(XPSR)
T3488 016:437.189 - 0.011ms returns 0x01000000
T3488 016:438.322 JLINK_HasError()
T3488 016:438.356 JLINK_ReadReg(R0)
T3488 016:438.372 - 0.020ms returns 0x20000080
T3488 016:438.383 JLINK_ReadReg(R1)
T3488 016:438.393 - 0.014ms returns 0x00000020
T3488 016:438.403 JLINK_ReadReg(R2)
T3488 016:438.412 - 0.013ms returns 0x00000000
T3488 016:438.422 JLINK_ReadReg(R3)
T3488 016:438.431 - 0.013ms returns 0x40013800
T3488 016:438.441 JLINK_ReadReg(R4)
T3488 016:438.450 - 0.013ms returns 0x00000001
T3488 016:438.460 JLINK_ReadReg(R5)
T3488 016:438.469 - 0.013ms returns 0x200004D0
T3488 016:438.479 JLINK_ReadReg(R6)
T3488 016:438.488 - 0.012ms returns 0x00000000
T3488 016:438.498 JLINK_ReadReg(R7)
T3488 016:438.506 - 0.012ms returns 0x00000000
T3488 016:438.516 JLINK_ReadReg(R8)
T3488 016:438.525 - 0.013ms returns 0x00000000
T3488 016:438.535 JLINK_ReadReg(R9)
T3488 016:438.543 - 0.012ms returns 0x00000000
T3488 016:438.553 JLINK_ReadReg(R10)
T3488 016:438.561 - 0.012ms returns 0x08004D1C
T3488 016:438.571 JLINK_ReadReg(R11)
T3488 016:438.580 - 0.012ms returns 0x00000000
T3488 016:438.590 JLINK_ReadReg(R12)
T3488 016:438.598 - 0.012ms returns 0x40008000
T3488 016:438.608 JLINK_ReadReg(R13 (SP))
T3488 016:438.617 - 0.013ms returns 0x20000AF8
T3488 016:438.627 JLINK_ReadReg(R14)
T3488 016:438.636 - 0.012ms returns 0x08004775
T3488 016:438.646 JLINK_ReadReg(R15 (PC))
T3488 016:438.654 - 0.013ms returns 0x08000B54
T3488 016:438.664 JLINK_ReadReg(XPSR)
T3488 016:438.673 - 0.013ms returns 0x01000000
T3488 016:438.683 JLINK_ReadReg(MSP)
T3488 016:438.704 - 0.025ms returns 0x20000AF8
T3488 016:438.714 JLINK_ReadReg(PSP)
T3488 016:438.723 - 0.012ms returns 0x00000000
T3488 016:438.733 JLINK_ReadReg(CFBP)
T3488 016:438.741 - 0.012ms returns 0x04000000
T3488 016:438.752 JLINK_ReadReg(FPSCR)
T3488 016:438.760 - 0.013ms returns 0x03000000
T3488 016:438.771 JLINK_ReadReg(FPS0)
T3488 016:438.779 - 0.012ms returns 0x00000000
T3488 016:438.789 JLINK_ReadReg(FPS1)
T3488 016:438.798 - 0.012ms returns 0x00000000
T3488 016:438.808 JLINK_ReadReg(FPS2)
T3488 016:438.817 - 0.013ms returns 0x00000000
T3488 016:438.827 JLINK_ReadReg(FPS3)
T3488 016:438.835 - 0.012ms returns 0x00000000
T3488 016:438.845 JLINK_ReadReg(FPS4)
T3488 016:438.853 - 0.012ms returns 0x00000000
T3488 016:438.863 JLINK_ReadReg(FPS5)
T3488 016:438.872 - 0.012ms returns 0x00000000
T3488 016:438.882 JLINK_ReadReg(FPS6)
T3488 016:438.890 - 0.012ms returns 0x00000000
T3488 016:438.901 JLINK_ReadReg(FPS7)
T3488 016:438.909 - 0.012ms returns 0x00000000
T3488 016:438.919 JLINK_ReadReg(FPS8)
T3488 016:438.927 - 0.012ms returns 0x00000000
T3488 016:438.936 JLINK_ReadReg(FPS9)
T3488 016:438.945 - 0.012ms returns 0x00000000
T3488 016:438.954 JLINK_ReadReg(FPS10)
T3488 016:438.962 - 0.012ms returns 0x00000000
T3488 016:438.971 JLINK_ReadReg(FPS11)
T3488 016:438.979 - 0.011ms returns 0x00000000
T3488 016:438.989 JLINK_ReadReg(FPS12)
T3488 016:438.997 - 0.012ms returns 0x00000000
T3488 016:439.006 JLINK_ReadReg(FPS13)
T3488 016:439.014 - 0.012ms returns 0x00000000
T3488 016:439.023 JLINK_ReadReg(FPS14)
T3488 016:439.032 - 0.012ms returns 0x00000000
T3488 016:439.041 JLINK_ReadReg(FPS15)
T3488 016:439.049 - 0.017ms returns 0x00000000
T3488 016:439.064 JLINK_ReadReg(FPS16)
T3488 016:439.072 - 0.011ms returns 0x00000000
